
T4910 000:295 SEGGER J-Link V5.12e Log File (0001ms, 0274ms total)
T4910 000:295 DLL Compiled: Apr 29 2016 15:03:58 (0001ms, 0274ms total)
T4910 000:295 Logging started @ 2018-08-16 21:17 (0001ms, 0274ms total)
T4910 000:296 JLINK_SetWarnOutHandler(...) (0000ms, 0274ms total)
T4910 000:296 JLINK_OpenEx(...)
Firmware: J-Link ARM-OB STM32 compiled Aug 22 2012 19:52:04
Hardware: V7.00
S/N: 20090928
Feature(s): RDI,FlashDL,FlashBP,JFlash,GDBFull  returns O.K. (0275ms, 0549ms total)
T4910 000:571 JLINK_SetErrorOutHandler(...) (0000ms, 0549ms total)
T4910 000:571 JLINK_ExecCommand("ProjectFile = "E:\KeilProject\FontRead\USER\JLinkSettings.ini"", ...)  returns 0x00 (0000ms, 0549ms total)
T4910 000:571 JLINK_ExecCommand("Device = STM32F103ZE", ...)Device "STM32F103ZE" selected.  returns 0x00 (0001ms, 0550ms total)
T4910 000:572 JLINK_ExecCommand("DisableConnectionTimeout", ...)  returns 0x01 (0000ms, 0550ms total)
T4910 000:572 JLINK_GetHardwareVersion()  returns 0x11170 (0000ms, 0550ms total)
T4910 000:572 JLINK_GetDLLVersion()  returns 51205 (0000ms, 0550ms total)
T4910 000:572 JLINK_GetFirmwareString(...) (0000ms, 0550ms total)
T4910 000:572 JLINK_GetDLLVersion()  returns 51205 (0000ms, 0550ms total)
T4910 000:572 JLINK_GetCompileDateTime() (0000ms, 0550ms total)
T4910 000:572 JLINK_GetFirmwareString(...) (0000ms, 0550ms total)
T4910 000:572 JLINK_GetHardwareVersion()  returns 0x11170 (0000ms, 0550ms total)
T4910 000:572 JLINK_TIF_Select(JLINKARM_TIF_SWD)  returns 0x00 (0003ms, 0553ms total)
T4910 000:575 JLINK_SetSpeed(5000) (0001ms, 0554ms total)
T4910 000:576 JLINK_GetId() >0x108 TIF>Found SWD-DP with ID 0x1BA01477 >0x0D TIF> >0x28 TIF> >0x0D TIF> >0x28 TIF> >0x0D TIF> >0x28 TIF> >0x0D TIF> >0x28 TIF> >0x0D TIF> >0x21 TIF> >0x0D TIF> >0x28 TIF> >0x0D TIF> >0x28 TIF> >0x0D TIF> >0x28 TIF> >0x0D TIF> >0x21 TIF> >0x0D TIF> >0x21 TIF> >0x0D TIF> >0x28 TIF> >0x0D TIF> >0x21 TIF> >0x0D TIF> >0x21 TIF> >0x0D TIF> >0x28 TIF> >0x0D TIF> >0x21 TIF> >0x0D TIF> >0x21 TIF> >0x0D TIF> >0x28 TIF> >0x0D TIF> >0x21 TIF> >0x0D TIF> >0x21 TIF> >0x0D TIF>
 >0x28 TIF> >0x0D TIF> >0x21 TIF> >0x0D TIF> >0x21 TIF> >0x0D TIF> >0x28 TIF> >0x0D TIF> >0x21 TIF> >0x0D TIF> >0x21 TIF> >0x108 TIF>Found SWD-DP with ID 0x1BA01477 >0x0D TIF> >0x28 TIF> >0x0D TIF> >0x28 TIF> >0x0D TIF> >0x28 TIF> >0x0D TIF> >0x28 TIF> >0x0D TIF> >0x21 TIF> >0x0D TIF> >0x28 TIF> >0x0D TIF> >0x28 TIF> >0x0D TIF> >0x21 TIF> >0x0D TIF> >0x21 TIF> >0x0D TIF> >0x21 TIF> >0x0D TIF> >0x28 TIF> >0x0D TIF> >0x28 TIF> >0x0D TIF> >0x28 TIF> >0x0D TIF> >0x21 TIF> >0x0D TIF> >0x21 TIF> >0x0D TIF>
 >0x28 TIF> >0x0D TIF> >0x21 TIF> >0x0D TIF> >0x21 TIF>Found Cortex-M3 r1p1, Little endian. -- CPU_ReadMem(4 bytes @ 0xE000EDF0) -- CPU_ReadMem(4 bytes @ 0xE0002000)FPUnit: 6 code (BP) slots and 2 literal slots -- CPU_ReadMem(4 bytes @ 0xE000EDFC) -- CPU_ReadMem(4 bytes @ 0xE0001000) -- CPU_WriteMem(4 bytes @ 0xE0001000) -- CPU_ReadMem(4 bytes @ 0xE000ED88) -- CPU_WriteMem(4 bytes @ 0xE000ED88) -- CPU_ReadMem(4 bytes @ 0xE000ED88) -- CPU_WriteMem(4 bytes @ 0xE000ED88)CoreSight components:
ROMTbl 0 @ E00FF000 -- CPU_ReadMem(16 bytes @ 0xE00FF000) -- CPU_ReadMem(16 bytes @ 0xE000EFF0) -- CPU_ReadMem(16 bytes @ 0xE000EFE0)ROMTbl 0 [0]: FFF0F000, CID: B105E00D, PID: 001BB000 SCS -- CPU_ReadMem(16 bytes @ 0xE0001FF0) -- CPU_ReadMem(16 bytes @ 0xE0001FE0)ROMTbl 0 [1]: FFF02000, CID: B105E00D, PID: 001BB002 DWT -- CPU_ReadMem(16 bytes @ 0xE0002FF0) -- CPU_ReadMem(16 bytes @ 0xE0002FE0)ROMTbl 0 [2]: FFF03000, CID: B105E00D, PID: 000BB003 FPB -- CPU_ReadMem(16 bytes @ 0xE0000FF0)
 -- CPU_ReadMem(16 bytes @ 0xE0000FE0)ROMTbl 0 [3]: FFF01000, CID: B105E00D, PID: 001BB001 ITM -- CPU_ReadMem(16 bytes @ 0xE00FF010) -- CPU_ReadMem(16 bytes @ 0xE0040FF0) -- CPU_ReadMem(16 bytes @ 0xE0040FE0)ROMTbl 0 [4]: FFF41000, CID: B105900D, PID: 001BB923 TPIU-Lite -- CPU_ReadMem(16 bytes @ 0xE0041FF0) -- CPU_ReadMem(16 bytes @ 0xE0041FE0)ROMTbl 0 [5]: FFF42000, CID: B105900D, PID: 101BB924 ETM-M3 >0x0D TIF> >0x21 TIF>  returns 0x1BA01477 (0127ms, 0681ms total)
T4910 000:703 JLINK_GetDLLVersion()  returns 51205 (0000ms, 0681ms total)
T4910 000:703 JLINK_CORE_GetFound()  returns 0x30000FF (0000ms, 0681ms total)
T4910 000:703 JLINK_GetDebugInfo(0x100) -- Value=0xE00FF000  returns 0x00 (0000ms, 0681ms total)
T4910 000:703 JLINK_GetDebugInfo(0x100) -- Value=0xE00FF000  returns 0x00 (0000ms, 0681ms total)
T4910 000:703 JLINK_GetDebugInfo(0x101) -- Value=0xE0041000  returns 0x00 (0000ms, 0681ms total)
T4910 000:703 JLINK_GetDebugInfo(0x102) -- Value=0x00000000  returns 0x00 (0000ms, 0681ms total)
T4910 000:703 JLINK_GetDebugInfo(0x103) -- Value=0xE0040000  returns 0x00 (0000ms, 0681ms total)
T4910 000:703 JLINK_GetDebugInfo(0x104) -- Value=0xE0000000  returns 0x00 (0000ms, 0681ms total)
T4910 000:703 JLINK_GetDebugInfo(0x105) -- Value=0xE0001000  returns 0x00 (0000ms, 0681ms total)
T4910 000:703 JLINK_GetDebugInfo(0x106) -- Value=0xE0002000  returns 0x00 (0000ms, 0681ms total)
T4910 000:703 JLINK_GetDebugInfo(0x107) -- Value=0xE000E000  returns 0x00 (0000ms, 0681ms total)
T4910 000:703 JLINK_GetDebugInfo(0x10C) -- Value=0xE000EDF0  returns 0x00 (0000ms, 0681ms total)
T4910 000:703 JLINK_ReadMemU32(0xE000ED00, 0x0001 Items, ...) -- CPU is running -- CPU_ReadMem(4 bytes @ 0xE000ED00) - Data: 31 C2 1F 41  returns 0x01 (0001ms, 0682ms total)
T4910 000:704 JLINK_SetResetType(JLINKARM_RESET_TYPE_NORMAL)  returns JLINKARM_RESET_TYPE_NORMAL (0000ms, 0682ms total)
T4910 000:704 JLINK_Reset() -- CPU is running -- CPU_WriteMem(4 bytes @ 0xE000EDF0) -- CPU is running -- CPU_WriteMem(4 bytes @ 0xE000EDFC) >0x35 TIF> -- CPU is running -- CPU_WriteMem(4 bytes @ 0xE000ED0C) -- CPU is running -- CPU_ReadMem(4 bytes @ 0xE000EDF0) -- CPU is running -- CPU_ReadMem(4 bytes @ 0xE000EDF0) -- CPU is running -- CPU_WriteMem(4 bytes @ 0xE000EDF0) -- CPU is running -- CPU_WriteMem(4 bytes @ 0xE000EDFC) -- CPU is running -- CPU_ReadMem(4 bytes @ 0xE000EDF0)
 -- CPU_WriteMem(4 bytes @ 0xE0002000) -- CPU_ReadMem(4 bytes @ 0xE000EDFC) -- CPU_ReadMem(4 bytes @ 0xE0001000) (0031ms, 0713ms total)
T4910 000:735 JLINK_ReadReg(R15 (PC))  returns 0x080001CC (0000ms, 0713ms total)
T4910 000:735 JLINK_ReadReg(XPSR)  returns 0x01000000 (0000ms, 0713ms total)
T4910 000:735 JLINK_Halt()  returns 0x00 (0000ms, 0713ms total)
T4910 000:735 JLINK_IsHalted()  returns TRUE (0000ms, 0713ms total)
T4910 000:735 JLINK_ReadMemU32(0xE000EDF0, 0x0001 Items, ...) -- CPU_ReadMem(4 bytes @ 0xE000EDF0) - Data: 03 00 03 00  returns 0x01 (0003ms, 0716ms total)
T4910 000:738 JLINK_WriteU32(0xE000EDF0, 0xA05F0003) -- CPU_WriteMem(4 bytes @ 0xE000EDF0)  returns 0x00 (0001ms, 0717ms total)
T4910 000:739 JLINK_WriteU32(0xE000EDFC, 0x01000000) -- CPU_WriteMem(4 bytes @ 0xE000EDFC)  returns 0x00 (0001ms, 0718ms total)
T4910 000:740 JLINK_GetHWStatus(...)  returns 0x00 (0001ms, 0719ms total)
T4910 000:741 JLINK_GetNumBPUnits(Type = 0xFFFFFF00)  returns 0x06 (0000ms, 0719ms total)
T4910 000:741 JLINK_GetNumBPUnits(Type = 0xF0)  returns 0x2000 (0000ms, 0719ms total)
T4910 000:741 JLINK_GetNumWPUnits()  returns 0x04 (0000ms, 0719ms total)
T4910 000:741 JLINK_GetSpeed()  returns 0xFA0 (0000ms, 0719ms total)
T4910 000:741 JLINK_ReadMemU32(0xE000E004, 0x0001 Items, ...) -- CPU_ReadMem(4 bytes @ 0xE000E004) - Data: 01 00 00 00  returns 0x01 (0001ms, 0720ms total)
T4910 000:742 JLINK_ReadMemU32(0xE000E004, 0x0001 Items, ...) -- CPU_ReadMem(4 bytes @ 0xE000E004) - Data: 01 00 00 00  returns 0x01 (0002ms, 0722ms total)
T4910 000:744 JLINK_WriteMem(0xE0001000, 0x001C Bytes, ...) - Data: 01 00 00 00 00 00 00 00 00 00 00 00 00 00 00 00 ... -- CPU_WriteMem(28 bytes @ 0xE0001000)  returns 0x1C (0002ms, 0724ms total)
T4910 000:746 JLINK_ReadMem (0xE0001000, 0x001C Bytes, ...) -- CPU_ReadMem(28 bytes @ 0xE0001000) - Data: 01 00 00 40 00 00 00 00 00 00 00 00 00 00 00 00 ...  returns 0x00 (0002ms, 0726ms total)
T4910 000:748 JLINK_ReadReg(R15 (PC))  returns 0x080001CC (0000ms, 0726ms total)
T4910 000:748 JLINK_ReadReg(XPSR)  returns 0x01000000 (0000ms, 0726ms total)
T4910 000:816 JLINK_SetResetType(JLINKARM_RESET_TYPE_NORMAL)  returns JLINKARM_RESET_TYPE_NORMAL (0000ms, 0726ms total)
T4910 000:816 JLINK_Reset() -- CPU_WriteMem(4 bytes @ 0xE000EDF0) -- CPU_WriteMem(4 bytes @ 0xE000EDFC) >0x35 TIF> -- CPU_WriteMem(4 bytes @ 0xE000ED0C) -- CPU_ReadMem(4 bytes @ 0xE000EDF0) -- CPU_ReadMem(4 bytes @ 0xE000EDF0) -- CPU_WriteMem(4 bytes @ 0xE000EDF0) -- CPU_WriteMem(4 bytes @ 0xE000EDFC) -- CPU is running -- CPU_ReadMem(4 bytes @ 0xE000EDF0) -- CPU_WriteMem(4 bytes @ 0xE0002000) -- CPU_ReadMem(4 bytes @ 0xE000EDFC) -- CPU_ReadMem(4 bytes @ 0xE0001000) (0031ms, 0757ms total)
T4910 000:847 JLINK_ReadReg(R15 (PC))  returns 0x080001CC (0000ms, 0757ms total)
T4910 000:848 JLINK_ReadReg(XPSR)  returns 0x01000000 (0000ms, 0757ms total)
T51E8 002:213 JLINK_SetBPEx(Addr = 0x08000AD8, Type = 0xFFFFFFF2)  returns 0x00000001 (0000ms, 0757ms total)
T51E8 002:213 JLINK_SetBPEx(Addr = 0x080003A6, Type = 0xFFFFFFF2)  returns 0x00000002 (0000ms, 0757ms total)
T51E8 002:213 JLINK_Go() -- CPU_WriteMem(4 bytes @ 0xE0002000) -- CPU_WriteMem(4 bytes @ 0xE0002000) -- CPU_ReadMem(4 bytes @ 0xE0001000) -- CPU_WriteMem(4 bytes @ 0xE0002008) -- CPU_WriteMem(4 bytes @ 0xE000200C) -- CPU_WriteMem(4 bytes @ 0xE0002010) -- CPU_WriteMem(4 bytes @ 0xE0002014) -- CPU_WriteMem(4 bytes @ 0xE0002018) -- CPU_WriteMem(4 bytes @ 0xE000201C) -- CPU_WriteMem(4 bytes @ 0xE0001004) (0009ms, 0766ms total)
T51E8 002:322 JLINK_IsHalted()  returns TRUE (0005ms, 0771ms total)
T51E8 002:327 JLINK_Halt()  returns 0x00 (0000ms, 0766ms total)
T51E8 002:327 JLINK_IsHalted()  returns TRUE (0000ms, 0766ms total)
T51E8 002:327 JLINK_IsHalted()  returns TRUE (0000ms, 0766ms total)
T51E8 002:327 JLINK_IsHalted()  returns TRUE (0000ms, 0766ms total)
T51E8 002:327 JLINK_ReadReg(R15 (PC))  returns 0x08000AD8 (0000ms, 0766ms total)
T51E8 002:327 JLINK_ReadReg(XPSR)  returns 0x21000000 (0000ms, 0766ms total)
T51E8 002:327 JLINK_ClrBPEx(BPHandle = 0x00000001)  returns 0x00 (0000ms, 0766ms total)
T51E8 002:327 JLINK_ClrBPEx(BPHandle = 0x00000002)  returns 0x00 (0000ms, 0766ms total)
T51E8 002:327 JLINK_ReadMemU32(0xE000ED30, 0x0001 Items, ...) -- CPU_ReadMem(4 bytes @ 0xE000ED30) - Data: 03 00 00 00  returns 0x01 (0001ms, 0767ms total)
T51E8 002:328 JLINK_ReadMemU32(0xE0001028, 0x0001 Items, ...) -- CPU_ReadMem(4 bytes @ 0xE0001028) - Data: 00 00 00 00  returns 0x01 (0001ms, 0768ms total)
T51E8 002:329 JLINK_ReadMemU32(0xE0001038, 0x0001 Items, ...) -- CPU_ReadMem(4 bytes @ 0xE0001038) - Data: 00 02 00 00  returns 0x01 (0001ms, 0769ms total)
T51E8 002:330 JLINK_ReadMemU32(0xE0001048, 0x0001 Items, ...) -- CPU_ReadMem(4 bytes @ 0xE0001048) - Data: 00 00 00 00  returns 0x01 (0002ms, 0771ms total)
T51E8 002:332 JLINK_ReadMemU32(0xE0001058, 0x0001 Items, ...) -- CPU_ReadMem(4 bytes @ 0xE0001058) - Data: 00 00 00 00  returns 0x01 (0001ms, 0772ms total)
T51E8 002:333 JLINK_ReadReg(R0)  returns 0x20000178 (0000ms, 0772ms total)
T51E8 002:333 JLINK_ReadReg(R1)  returns 0x20000378 (0000ms, 0772ms total)
T51E8 002:333 JLINK_ReadReg(R2)  returns 0x20000378 (0000ms, 0772ms total)
T51E8 002:333 JLINK_ReadReg(R3)  returns 0x20000378 (0000ms, 0772ms total)
T51E8 002:333 JLINK_ReadReg(R4)  returns 0x00000000 (0000ms, 0772ms total)
T51E8 002:333 JLINK_ReadReg(R5)  returns 0x20000118 (0000ms, 0772ms total)
T51E8 002:333 JLINK_ReadReg(R6)  returns 0x00000000 (0000ms, 0772ms total)
T51E8 002:333 JLINK_ReadReg(R7)  returns 0x00000000 (0000ms, 0772ms total)
T51E8 002:333 JLINK_ReadReg(R8)  returns 0x00000000 (0000ms, 0772ms total)
T51E8 002:333 JLINK_ReadReg(R9)  returns 0x20000160 (0000ms, 0772ms total)
T51E8 002:333 JLINK_ReadReg(R10)  returns 0x08000B20 (0000ms, 0772ms total)
T51E8 002:333 JLINK_ReadReg(R11)  returns 0x00000000 (0000ms, 0772ms total)
T51E8 002:333 JLINK_ReadReg(R12)  returns 0x20000158 (0000ms, 0772ms total)
T51E8 002:333 JLINK_ReadReg(R13 (SP))  returns 0x20000778 (0000ms, 0772ms total)
T51E8 002:333 JLINK_ReadReg(R14)  returns 0x080001BB (0000ms, 0772ms total)
T51E8 002:333 JLINK_ReadReg(R15 (PC))  returns 0x08000AD8 (0000ms, 0772ms total)
T51E8 002:333 JLINK_ReadReg(XPSR)  returns 0x21000000 (0000ms, 0772ms total)
T51E8 002:333 JLINK_ReadReg(MSP)  returns 0x20000778 (0000ms, 0772ms total)
T51E8 002:333 JLINK_ReadReg(PSP)  returns 0x20001000 (0000ms, 0772ms total)
T51E8 002:333 JLINK_ReadReg(CFBP)  returns 0x00000000 (0000ms, 0772ms total)
T4910 002:336 JLINK_ReadMemU32(0xE0001004, 0x0001 Items, ...) -- CPU_ReadMem(4 bytes @ 0xE0001004) - Data: 91 17 00 00  returns 0x01 (0002ms, 0774ms total)
T51E8 002:952 JLINK_ReadMem (0x08000AD8, 0x003C Bytes, ...) -- CPU_ReadMem(128 bytes @ 0x08000AC0) -- Updating C cache (128 bytes @ 0x08000AC0) -- Read from C cache (60 bytes @ 0x08000AD8) - Data: 10 B5 FF F7 93 FF FF F7 D9 FF 01 22 10 21 05 A0 ...  returns 0x00 (0002ms, 0776ms total)
T51E8 002:954 JLINK_Step() -- Read from C cache (2 bytes @ 0x08000AD8) -- CPU_ReadMem(4 bytes @ 0xE000ED18) -- CPU_WriteMem(4 bytes @ 0xE000ED18) -- CPU_ReadMem(4 bytes @ 0xE000ED18) -- CPU_WriteMem(4 bytes @ 0xE000ED18) -- CPU_WriteMem(8 bytes @ 0x20000770) -- Simulated  returns 0x00 (0008ms, 0784ms total)
T51E8 002:962 JLINK_ReadReg(R15 (PC))  returns 0x08000ADA (0000ms, 0784ms total)
T51E8 002:962 JLINK_ReadReg(XPSR)  returns 0x21000000 (0000ms, 0784ms total)
T51E8 002:962 JLINK_ReadReg(R0)  returns 0x20000178 (0000ms, 0784ms total)
T51E8 002:962 JLINK_ReadReg(R1)  returns 0x20000378 (0000ms, 0784ms total)
T51E8 002:962 JLINK_ReadReg(R2)  returns 0x20000378 (0000ms, 0784ms total)
T51E8 002:962 JLINK_ReadReg(R3)  returns 0x20000378 (0000ms, 0784ms total)
T51E8 002:962 JLINK_ReadReg(R4)  returns 0x00000000 (0000ms, 0784ms total)
T51E8 002:962 JLINK_ReadReg(R5)  returns 0x20000118 (0000ms, 0784ms total)
T51E8 002:962 JLINK_ReadReg(R6)  returns 0x00000000 (0000ms, 0784ms total)
T51E8 002:962 JLINK_ReadReg(R7)  returns 0x00000000 (0000ms, 0784ms total)
T51E8 002:962 JLINK_ReadReg(R8)  returns 0x00000000 (0000ms, 0784ms total)
T51E8 002:962 JLINK_ReadReg(R9)  returns 0x20000160 (0000ms, 0784ms total)
T51E8 002:962 JLINK_ReadReg(R10)  returns 0x08000B20 (0000ms, 0784ms total)
T51E8 002:962 JLINK_ReadReg(R11)  returns 0x00000000 (0000ms, 0784ms total)
T51E8 002:962 JLINK_ReadReg(R12)  returns 0x20000158 (0000ms, 0784ms total)
T51E8 002:962 JLINK_ReadReg(R13 (SP))  returns 0x20000770 (0000ms, 0784ms total)
T51E8 002:962 JLINK_ReadReg(R14)  returns 0x080001BB (0000ms, 0784ms total)
T51E8 002:962 JLINK_ReadReg(R15 (PC))  returns 0x08000ADA (0000ms, 0784ms total)
T51E8 002:962 JLINK_ReadReg(XPSR)  returns 0x21000000 (0000ms, 0784ms total)
T51E8 002:962 JLINK_ReadReg(MSP)  returns 0x20000770 (0000ms, 0784ms total)
T51E8 002:962 JLINK_ReadReg(PSP)  returns 0x20001000 (0000ms, 0784ms total)
T51E8 002:962 JLINK_ReadReg(CFBP)  returns 0x00000000 (0000ms, 0784ms total)
T4910 002:962 JLINK_ReadMem (0x20000774, 0x0004 Bytes, ...) -- CPU_ReadMem(64 bytes @ 0x20000740) -- Updating C cache (64 bytes @ 0x20000740) -- Read from C cache (4 bytes @ 0x20000774) - Data: BB 01 00 08  returns 0x00 (0003ms, 0787ms total)
T4910 002:965 JLINK_ReadMemU32(0xE0001004, 0x0001 Items, ...) - Data: 91 17 00 00  returns 0x01 (0000ms, 0787ms total)
T51E8 003:355 JLINK_ReadMem (0x08000ADA, 0x0002 Bytes, ...) -- Read from C cache (2 bytes @ 0x08000ADA) - Data: FF F7  returns 0x00 (0000ms, 0787ms total)
T51E8 003:355 JLINK_ReadMem (0x08000ADC, 0x003C Bytes, ...) -- Read from C cache (60 bytes @ 0x08000ADC) - Data: 93 FF FF F7 D9 FF 01 22 10 21 05 A0 FF F7 38 FE ...  returns 0x00 (0000ms, 0787ms total)
T51E8 003:355 JLINK_SetBPEx(Addr = 0x08000ADE, Type = 0xFFFFFFF2)  returns 0x00000003 (0000ms, 0787ms total)
T51E8 003:355 JLINK_SetBPEx(Addr = 0x080003A6, Type = 0xFFFFFFF2)  returns 0x00000004 (0000ms, 0787ms total)
T51E8 003:355 JLINK_Go() -- CPU_WriteMem(4 bytes @ 0xE0002000) -- CPU_WriteMem(4 bytes @ 0xE0002000) -- CPU_ReadMem(4 bytes @ 0xE0001000) -- CPU_WriteMem(4 bytes @ 0xE0002008) -- CPU_WriteMem(4 bytes @ 0xE0001004) (0007ms, 0794ms total)
T51E8 003:463 JLINK_IsHalted()  returns TRUE (0005ms, 0799ms total)
T51E8 003:468 JLINK_Halt()  returns 0x00 (0000ms, 0794ms total)
T51E8 003:468 JLINK_IsHalted()  returns TRUE (0000ms, 0794ms total)
T51E8 003:468 JLINK_IsHalted()  returns TRUE (0000ms, 0794ms total)
T51E8 003:468 JLINK_IsHalted()  returns TRUE (0000ms, 0794ms total)
T51E8 003:468 JLINK_ReadReg(R15 (PC))  returns 0x08000ADE (0000ms, 0794ms total)
T51E8 003:468 JLINK_ReadReg(XPSR)  returns 0xA1000000 (0000ms, 0794ms total)
T51E8 003:468 JLINK_ClrBPEx(BPHandle = 0x00000003)  returns 0x00 (0000ms, 0794ms total)
T51E8 003:468 JLINK_ClrBPEx(BPHandle = 0x00000004)  returns 0x00 (0000ms, 0794ms total)
T51E8 003:468 JLINK_ReadMemU32(0xE000ED30, 0x0001 Items, ...) -- CPU_ReadMem(4 bytes @ 0xE000ED30) - Data: 03 00 00 00  returns 0x01 (0001ms, 0795ms total)
T51E8 003:469 JLINK_ReadMemU32(0xE0001028, 0x0001 Items, ...) -- CPU_ReadMem(4 bytes @ 0xE0001028) - Data: 00 00 00 00  returns 0x01 (0001ms, 0796ms total)
T51E8 003:470 JLINK_ReadMemU32(0xE0001038, 0x0001 Items, ...) -- CPU_ReadMem(4 bytes @ 0xE0001038) - Data: 00 02 00 00  returns 0x01 (0001ms, 0797ms total)
T51E8 003:471 JLINK_ReadMemU32(0xE0001048, 0x0001 Items, ...) -- CPU_ReadMem(4 bytes @ 0xE0001048) - Data: 00 00 00 00  returns 0x01 (0001ms, 0798ms total)
T51E8 003:472 JLINK_ReadMemU32(0xE0001058, 0x0001 Items, ...) -- CPU_ReadMem(4 bytes @ 0xE0001058) - Data: 00 00 00 00  returns 0x01 (0001ms, 0799ms total)
T51E8 003:473 JLINK_ReadReg(R0)  returns 0x00002328 (0000ms, 0799ms total)
T51E8 003:473 JLINK_ReadReg(R1)  returns 0x20000020 (0001ms, 0800ms total)
T51E8 003:474 JLINK_ReadReg(R2)  returns 0xE000E000 (0000ms, 0800ms total)
T51E8 003:474 JLINK_ReadReg(R3)  returns 0x20000378 (0000ms, 0800ms total)
T51E8 003:474 JLINK_ReadReg(R4)  returns 0x00000000 (0000ms, 0800ms total)
T51E8 003:474 JLINK_ReadReg(R5)  returns 0x20000118 (0000ms, 0800ms total)
T51E8 003:474 JLINK_ReadReg(R6)  returns 0x00000000 (0000ms, 0800ms total)
T51E8 003:474 JLINK_ReadReg(R7)  returns 0x00000000 (0000ms, 0800ms total)
T51E8 003:474 JLINK_ReadReg(R8)  returns 0x00000000 (0000ms, 0800ms total)
T51E8 003:474 JLINK_ReadReg(R9)  returns 0x20000160 (0000ms, 0800ms total)
T51E8 003:474 JLINK_ReadReg(R10)  returns 0x08000B20 (0000ms, 0800ms total)
T51E8 003:474 JLINK_ReadReg(R11)  returns 0x00000000 (0000ms, 0800ms total)
T51E8 003:474 JLINK_ReadReg(R12)  returns 0x20000158 (0000ms, 0800ms total)
T51E8 003:474 JLINK_ReadReg(R13 (SP))  returns 0x20000770 (0000ms, 0800ms total)
T51E8 003:474 JLINK_ReadReg(R14)  returns 0x08000A0F (0000ms, 0800ms total)
T51E8 003:474 JLINK_ReadReg(R15 (PC))  returns 0x08000ADE (0000ms, 0800ms total)
T51E8 003:474 JLINK_ReadReg(XPSR)  returns 0xA1000000 (0000ms, 0800ms total)
T51E8 003:474 JLINK_ReadReg(MSP)  returns 0x20000770 (0000ms, 0800ms total)
T51E8 003:474 JLINK_ReadReg(PSP)  returns 0x20001000 (0000ms, 0800ms total)
T51E8 003:474 JLINK_ReadReg(CFBP)  returns 0x00000000 (0000ms, 0800ms total)
T4910 003:474 JLINK_ReadMem (0x20000774, 0x0004 Bytes, ...) -- CPU_ReadMem(64 bytes @ 0x20000740) -- Updating C cache (64 bytes @ 0x20000740) -- Read from C cache (4 bytes @ 0x20000774) - Data: BB 01 00 08  returns 0x00 (0002ms, 0802ms total)
T4910 003:476 JLINK_ReadMemU32(0xE0001004, 0x0001 Items, ...) -- CPU_ReadMem(4 bytes @ 0xE0001004) - Data: EA 17 00 00  returns 0x01 (0001ms, 0803ms total)
T51E8 003:832 JLINK_ReadMem (0x08000ADE, 0x0002 Bytes, ...) -- CPU_ReadMem(64 bytes @ 0x08000AC0) -- Updating C cache (64 bytes @ 0x08000AC0) -- Read from C cache (2 bytes @ 0x08000ADE) - Data: FF F7  returns 0x00 (0001ms, 0804ms total)
T51E8 003:833 JLINK_ReadMem (0x08000AE0, 0x003C Bytes, ...) -- CPU_ReadMem(64 bytes @ 0x08000B00) -- Updating C cache (64 bytes @ 0x08000B00) -- Read from C cache (60 bytes @ 0x08000AE0) - Data: D9 FF 01 22 10 21 05 A0 FF F7 38 FE 01 22 20 21 ...  returns 0x00 (0002ms, 0806ms total)
T51E8 003:835 JLINK_SetBPEx(Addr = 0x08000AE2, Type = 0xFFFFFFF2)  returns 0x00000005 (0000ms, 0806ms total)
T51E8 003:835 JLINK_SetBPEx(Addr = 0x080003A6, Type = 0xFFFFFFF2)  returns 0x00000006 (0000ms, 0806ms total)
T51E8 003:835 JLINK_Go() -- CPU_WriteMem(4 bytes @ 0xE0002000) -- CPU_WriteMem(4 bytes @ 0xE0002000) -- CPU_ReadMem(4 bytes @ 0xE0001000) -- CPU_WriteMem(4 bytes @ 0xE0002008) (0010ms, 0816ms total)
T51E8 003:945 JLINK_IsHalted()  returns TRUE (0005ms, 0821ms total)
T51E8 003:950 JLINK_Halt()  returns 0x00 (0000ms, 0816ms total)
T51E8 003:950 JLINK_IsHalted()  returns TRUE (0000ms, 0816ms total)
T51E8 003:950 JLINK_IsHalted()  returns TRUE (0000ms, 0816ms total)
T51E8 003:950 JLINK_IsHalted()  returns TRUE (0000ms, 0816ms total)
T51E8 003:950 JLINK_ReadReg(R15 (PC))  returns 0x08000AE2 (0000ms, 0816ms total)
T51E8 003:950 JLINK_ReadReg(XPSR)  returns 0x61000000 (0000ms, 0816ms total)
T51E8 003:950 JLINK_ClrBPEx(BPHandle = 0x00000005)  returns 0x00 (0000ms, 0816ms total)
T51E8 003:950 JLINK_ClrBPEx(BPHandle = 0x00000006)  returns 0x00 (0001ms, 0817ms total)
T51E8 003:951 JLINK_ReadMemU32(0xE000ED30, 0x0001 Items, ...) -- CPU_ReadMem(4 bytes @ 0xE000ED30) - Data: 03 00 00 00  returns 0x01 (0001ms, 0818ms total)
T51E8 003:952 JLINK_ReadMemU32(0xE0001028, 0x0001 Items, ...) -- CPU_ReadMem(4 bytes @ 0xE0001028) - Data: 00 00 00 00  returns 0x01 (0001ms, 0819ms total)
T51E8 003:953 JLINK_ReadMemU32(0xE0001038, 0x0001 Items, ...) -- CPU_ReadMem(4 bytes @ 0xE0001038) - Data: 00 02 00 00  returns 0x01 (0001ms, 0820ms total)
T51E8 003:954 JLINK_ReadMemU32(0xE0001048, 0x0001 Items, ...) -- CPU_ReadMem(4 bytes @ 0xE0001048) - Data: 00 00 00 00  returns 0x01 (0001ms, 0821ms total)
T51E8 003:955 JLINK_ReadMemU32(0xE0001058, 0x0001 Items, ...) -- CPU_ReadMem(4 bytes @ 0xE0001058) - Data: 00 00 00 00  returns 0x01 (0001ms, 0822ms total)
T51E8 003:956 JLINK_ReadReg(R0)  returns 0x00000000 (0000ms, 0822ms total)
T51E8 003:956 JLINK_ReadReg(R1)  returns 0x422181B0 (0000ms, 0822ms total)
T51E8 003:956 JLINK_ReadReg(R2)  returns 0x40003800 (0000ms, 0822ms total)
T51E8 003:956 JLINK_ReadReg(R3)  returns 0x00000001 (0000ms, 0822ms total)
T51E8 003:956 JLINK_ReadReg(R4)  returns 0x00000000 (0000ms, 0822ms total)
T51E8 003:956 JLINK_ReadReg(R5)  returns 0x20000118 (0000ms, 0822ms total)
T51E8 003:956 JLINK_ReadReg(R6)  returns 0x00000000 (0000ms, 0822ms total)
T51E8 003:956 JLINK_ReadReg(R7)  returns 0x00000000 (0000ms, 0822ms total)
T51E8 003:956 JLINK_ReadReg(R8)  returns 0x00000000 (0000ms, 0822ms total)
T51E8 003:956 JLINK_ReadReg(R9)  returns 0x20000160 (0000ms, 0822ms total)
T51E8 003:956 JLINK_ReadReg(R10)  returns 0x08000B20 (0000ms, 0822ms total)
T51E8 003:956 JLINK_ReadReg(R11)  returns 0x00000000 (0000ms, 0822ms total)
T51E8 003:956 JLINK_ReadReg(R12)  returns 0x00000018 (0000ms, 0822ms total)
T51E8 003:956 JLINK_ReadReg(R13 (SP))  returns 0x20000770 (0001ms, 0823ms total)
T51E8 003:957 JLINK_ReadReg(R14)  returns 0x080005CF (0000ms, 0823ms total)
T51E8 003:957 JLINK_ReadReg(R15 (PC))  returns 0x08000AE2 (0000ms, 0823ms total)
T51E8 003:957 JLINK_ReadReg(XPSR)  returns 0x61000000 (0000ms, 0823ms total)
T51E8 003:957 JLINK_ReadReg(MSP)  returns 0x20000770 (0000ms, 0823ms total)
T51E8 003:957 JLINK_ReadReg(PSP)  returns 0x20001000 (0000ms, 0823ms total)
T51E8 003:957 JLINK_ReadReg(CFBP)  returns 0x00000000 (0000ms, 0823ms total)
T4910 003:957 JLINK_ReadMem (0x20000774, 0x0004 Bytes, ...) -- CPU_ReadMem(64 bytes @ 0x20000740) -- Updating C cache (64 bytes @ 0x20000740) -- Read from C cache (4 bytes @ 0x20000774) - Data: BB 01 00 08  returns 0x00 (0002ms, 0825ms total)
T4910 003:959 JLINK_ReadMemU32(0xE0001004, 0x0001 Items, ...) -- CPU_ReadMem(4 bytes @ 0xE0001004) - Data: C9 54 00 00  returns 0x01 (0002ms, 0827ms total)
T51E8 004:837 JLINK_ReadMem (0x08000AE2, 0x0002 Bytes, ...) -- CPU_ReadMem(64 bytes @ 0x08000AC0) -- Updating C cache (64 bytes @ 0x08000AC0) -- Read from C cache (2 bytes @ 0x08000AE2) - Data: 01 22  returns 0x00 (0002ms, 0829ms total)
T51E8 004:839 JLINK_ReadMem (0x08000AE4, 0x003C Bytes, ...) -- CPU_ReadMem(64 bytes @ 0x08000B00) -- Updating C cache (64 bytes @ 0x08000B00) -- Read from C cache (60 bytes @ 0x08000AE4) - Data: 10 21 05 A0 FF F7 38 FE 01 22 20 21 02 A0 FF F7 ...  returns 0x00 (0002ms, 0831ms total)
T51E8 004:841 JLINK_Step() -- Read from C cache (2 bytes @ 0x08000AE2) -- Simulated  returns 0x00 (0001ms, 0832ms total)
T51E8 004:842 JLINK_ReadReg(R15 (PC))  returns 0x08000AE4 (0000ms, 0832ms total)
T51E8 004:842 JLINK_ReadReg(XPSR)  returns 0x21000000 (0000ms, 0832ms total)
T51E8 004:842 JLINK_Step() -- Read from C cache (2 bytes @ 0x08000AE4) -- Simulated  returns 0x00 (0000ms, 0832ms total)
T51E8 004:843 JLINK_ReadReg(R15 (PC))  returns 0x08000AE6 (0000ms, 0833ms total)
T51E8 004:843 JLINK_ReadReg(XPSR)  returns 0x21000000 (0000ms, 0833ms total)
T51E8 004:843 JLINK_Step() -- Read from C cache (2 bytes @ 0x08000AE6) -- Simulated  returns 0x00 (0000ms, 0833ms total)
T51E8 004:843 JLINK_ReadReg(R15 (PC))  returns 0x08000AE8 (0000ms, 0833ms total)
T51E8 004:843 JLINK_ReadReg(XPSR)  returns 0x21000000 (0000ms, 0833ms total)
T51E8 004:843 JLINK_Step() -- Read from C cache (2 bytes @ 0x08000AE8) -- Read from C cache (2 bytes @ 0x08000AEA) -- Simulated  returns 0x00 (0000ms, 0833ms total)
T51E8 004:843 JLINK_ReadReg(R15 (PC))  returns 0x0800075C (0000ms, 0833ms total)
T51E8 004:843 JLINK_ReadReg(XPSR)  returns 0x21000000 (0000ms, 0833ms total)
T51E8 004:843 JLINK_ReadReg(R0)  returns 0x08000AFC (0000ms, 0833ms total)
T51E8 004:843 JLINK_ReadReg(R1)  returns 0x00000010 (0000ms, 0833ms total)
T51E8 004:843 JLINK_ReadReg(R2)  returns 0x00000001 (0000ms, 0833ms total)
T51E8 004:843 JLINK_ReadReg(R3)  returns 0x00000001 (0000ms, 0833ms total)
T51E8 004:843 JLINK_ReadReg(R4)  returns 0x00000000 (0000ms, 0833ms total)
T51E8 004:843 JLINK_ReadReg(R5)  returns 0x20000118 (0000ms, 0833ms total)
T51E8 004:843 JLINK_ReadReg(R6)  returns 0x00000000 (0000ms, 0833ms total)
T51E8 004:843 JLINK_ReadReg(R7)  returns 0x00000000 (0000ms, 0833ms total)
T51E8 004:843 JLINK_ReadReg(R8)  returns 0x00000000 (0000ms, 0833ms total)
T51E8 004:843 JLINK_ReadReg(R9)  returns 0x20000160 (0000ms, 0833ms total)
T51E8 004:843 JLINK_ReadReg(R10)  returns 0x08000B20 (0000ms, 0833ms total)
T51E8 004:843 JLINK_ReadReg(R11)  returns 0x00000000 (0000ms, 0833ms total)
T51E8 004:843 JLINK_ReadReg(R12)  returns 0x00000018 (0000ms, 0833ms total)
T51E8 004:843 JLINK_ReadReg(R13 (SP))  returns 0x20000770 (0000ms, 0833ms total)
T51E8 004:843 JLINK_ReadReg(R14)  returns 0x08000AED (0000ms, 0833ms total)
T51E8 004:843 JLINK_ReadReg(R15 (PC))  returns 0x0800075C (0000ms, 0833ms total)
T51E8 004:843 JLINK_ReadReg(XPSR)  returns 0x21000000 (0000ms, 0833ms total)
T51E8 004:843 JLINK_ReadReg(MSP)  returns 0x20000770 (0000ms, 0833ms total)
T51E8 004:843 JLINK_ReadReg(PSP)  returns 0x20001000 (0000ms, 0833ms total)
T51E8 004:843 JLINK_ReadReg(CFBP)  returns 0x00000000 (0000ms, 0833ms total)
T4910 004:843 JLINK_ReadMem (0x20000774, 0x0004 Bytes, ...) -- Read from C cache (4 bytes @ 0x20000774) - Data: BB 01 00 08  returns 0x00 (0000ms, 0833ms total)
T4910 004:843 JLINK_ReadMem (0x08000AFC, 0x0020 Bytes, ...) -- Read from C cache (32 bytes @ 0x08000AFC) - Data: D6 D0 00 00 20 0B 00 08 00 00 00 20 24 00 00 00 ...  returns 0x00 (0000ms, 0833ms total)
T4910 004:849 JLINK_ReadMemU32(0xE0001004, 0x0001 Items, ...) - Data: C9 54 00 00  returns 0x01 (0000ms, 0833ms total)
T51E8 005:573 JLINK_ReadMem (0x0800075C, 0x003C Bytes, ...) -- CPU_ReadMem(128 bytes @ 0x08000740) -- Updating C cache (128 bytes @ 0x08000740) -- Read from C cache (60 bytes @ 0x0800075C) - Data: 2D E9 F0 41 04 46 0D 46 17 46 00 26 11 E0 56 B9 ...  returns 0x00 (0003ms, 0836ms total)
T51E8 005:576 JLINK_Step() -- Read from C cache (2 bytes @ 0x0800075C) -- Read from C cache (2 bytes @ 0x0800075E) -- Not simulated -- CPU_WriteMem(4 bytes @ 0xE0002008) -- CPU_WriteMem(4 bytes @ 0xE000200C) -- CPU_WriteMem(4 bytes @ 0xE0001004)  returns 0x00 (0013ms, 0849ms total)
T51E8 005:589 JLINK_ReadReg(R15 (PC))  returns 0x08000760 (0000ms, 0849ms total)
T51E8 005:589 JLINK_ReadReg(XPSR)  returns 0x21000000 (0000ms, 0849ms total)
T51E8 005:589 JLINK_Step() -- CPU_ReadMem(64 bytes @ 0x08000740) -- Updating C cache (64 bytes @ 0x08000740) -- Read from C cache (2 bytes @ 0x08000760) -- CPU_ReadMem(4 bytes @ 0xE0001004) -- Simulated  returns 0x00 (0004ms, 0853ms total)
T51E8 005:593 JLINK_ReadReg(R15 (PC))  returns 0x08000762 (0000ms, 0853ms total)
T51E8 005:593 JLINK_ReadReg(XPSR)  returns 0x21000000 (0000ms, 0853ms total)
T51E8 005:593 JLINK_Step() -- Read from C cache (2 bytes @ 0x08000762) -- Simulated  returns 0x00 (0000ms, 0853ms total)
T51E8 005:593 JLINK_ReadReg(R15 (PC))  returns 0x08000764 (0000ms, 0853ms total)
T51E8 005:593 JLINK_ReadReg(XPSR)  returns 0x21000000 (0000ms, 0853ms total)
T51E8 005:593 JLINK_Step() -- Read from C cache (2 bytes @ 0x08000764) -- Simulated  returns 0x00 (0000ms, 0853ms total)
T51E8 005:593 JLINK_ReadReg(R15 (PC))  returns 0x08000766 (0000ms, 0853ms total)
T51E8 005:593 JLINK_ReadReg(XPSR)  returns 0x21000000 (0000ms, 0853ms total)
T51E8 005:593 JLINK_ReadReg(R0)  returns 0x08000AFC (0000ms, 0853ms total)
T51E8 005:593 JLINK_ReadReg(R1)  returns 0x00000010 (0001ms, 0854ms total)
T51E8 005:594 JLINK_ReadReg(R2)  returns 0x00000001 (0000ms, 0854ms total)
T51E8 005:594 JLINK_ReadReg(R3)  returns 0x00000001 (0000ms, 0854ms total)
T51E8 005:594 JLINK_ReadReg(R4)  returns 0x08000AFC (0000ms, 0854ms total)
T51E8 005:594 JLINK_ReadReg(R5)  returns 0x00000010 (0000ms, 0854ms total)
T51E8 005:594 JLINK_ReadReg(R6)  returns 0x00000000 (0000ms, 0854ms total)
T51E8 005:594 JLINK_ReadReg(R7)  returns 0x00000001 (0000ms, 0854ms total)
T51E8 005:594 JLINK_ReadReg(R8)  returns 0x00000000 (0000ms, 0854ms total)
T51E8 005:594 JLINK_ReadReg(R9)  returns 0x20000160 (0000ms, 0854ms total)
T51E8 005:594 JLINK_ReadReg(R10)  returns 0x08000B20 (0000ms, 0854ms total)
T51E8 005:594 JLINK_ReadReg(R11)  returns 0x00000000 (0000ms, 0854ms total)
T51E8 005:594 JLINK_ReadReg(R12)  returns 0x00000018 (0000ms, 0854ms total)
T51E8 005:594 JLINK_ReadReg(R13 (SP))  returns 0x20000758 (0000ms, 0854ms total)
T51E8 005:594 JLINK_ReadReg(R14)  returns 0x08000AED (0000ms, 0854ms total)
T51E8 005:594 JLINK_ReadReg(R15 (PC))  returns 0x08000766 (0000ms, 0854ms total)
T51E8 005:594 JLINK_ReadReg(XPSR)  returns 0x21000000 (0000ms, 0854ms total)
T51E8 005:594 JLINK_ReadReg(MSP)  returns 0x20000758 (0000ms, 0854ms total)
T51E8 005:594 JLINK_ReadReg(PSP)  returns 0x20001000 (0000ms, 0854ms total)
T51E8 005:594 JLINK_ReadReg(CFBP)  returns 0x00000000 (0000ms, 0854ms total)
T4910 005:595 JLINK_ReadMem (0x2000076C, 0x0004 Bytes, ...) -- CPU_ReadMem(64 bytes @ 0x20000740) -- Updating C cache (64 bytes @ 0x20000740) -- Read from C cache (4 bytes @ 0x2000076C) - Data: ED 0A 00 08  returns 0x00 (0003ms, 0857ms total)
T4910 005:598 JLINK_ReadMem (0x20000758, 0x0004 Bytes, ...) -- Read from C cache (4 bytes @ 0x20000758) - Data: 00 00 00 00  returns 0x00 (0000ms, 0857ms total)
T4910 005:598 JLINK_ReadMem (0x2000075C, 0x0004 Bytes, ...) -- Read from C cache (4 bytes @ 0x2000075C) - Data: 18 01 00 20  returns 0x00 (0000ms, 0857ms total)
T4910 005:598 JLINK_ReadMem (0x20000760, 0x0004 Bytes, ...) -- Read from C cache (4 bytes @ 0x20000760) - Data: 00 00 00 00  returns 0x00 (0000ms, 0857ms total)
T4910 005:598 JLINK_ReadMem (0x20000764, 0x0004 Bytes, ...) -- Read from C cache (4 bytes @ 0x20000764) - Data: 00 00 00 00  returns 0x00 (0000ms, 0857ms total)
T4910 005:598 JLINK_ReadMem (0x20000768, 0x0004 Bytes, ...) -- Read from C cache (4 bytes @ 0x20000768) - Data: 00 00 00 00  returns 0x00 (0000ms, 0857ms total)
T4910 005:598 JLINK_ReadMem (0x20000774, 0x0004 Bytes, ...) -- Read from C cache (4 bytes @ 0x20000774) - Data: BB 01 00 08  returns 0x00 (0000ms, 0857ms total)
T4910 005:598 JLINK_ReadMem (0x08000AFC, 0x0020 Bytes, ...) -- CPU_ReadMem(128 bytes @ 0x08000AC0) -- Updating C cache (128 bytes @ 0x08000AC0) -- Read from C cache (32 bytes @ 0x08000AFC) - Data: D6 D0 00 00 20 0B 00 08 00 00 00 20 24 00 00 00 ...  returns 0x00 (0003ms, 0860ms total)
T4910 005:601 JLINK_ReadMemU32(0xE0001004, 0x0001 Items, ...) - Data: D4 54 00 00  returns 0x01 (0000ms, 0860ms total)
T51E8 007:314 JLINK_SetBPEx(Addr = 0x080003A6, Type = 0xFFFFFFF2)  returns 0x00000007 (0001ms, 0861ms total)
T51E8 007:315 JLINK_Go() -- CPU_WriteMem(4 bytes @ 0xE0002000) -- CPU_ReadMem(4 bytes @ 0xE0001000) -- CPU_WriteMem(4 bytes @ 0xE0002008) -- CPU_WriteMem(4 bytes @ 0xE0001004) (0009ms, 0870ms total)
T51E8 007:424 JLINK_IsHalted()  returns TRUE (0005ms, 0875ms total)
T51E8 007:429 JLINK_Halt()  returns 0x00 (0000ms, 0870ms total)
T51E8 007:429 JLINK_IsHalted()  returns TRUE (0000ms, 0870ms total)
T51E8 007:429 JLINK_IsHalted()  returns TRUE (0000ms, 0870ms total)
T51E8 007:429 JLINK_IsHalted()  returns TRUE (0000ms, 0870ms total)
T51E8 007:429 JLINK_ReadReg(R15 (PC))  returns 0x080003A6 (0000ms, 0870ms total)
T51E8 007:429 JLINK_ReadReg(XPSR)  returns 0x61000000 (0000ms, 0870ms total)
T51E8 007:429 JLINK_ClrBPEx(BPHandle = 0x00000007)  returns 0x00 (0000ms, 0870ms total)
T51E8 007:429 JLINK_ReadMemU32(0xE000ED30, 0x0001 Items, ...) -- CPU_ReadMem(4 bytes @ 0xE000ED30) - Data: 03 00 00 00  returns 0x01 (0002ms, 0872ms total)
T51E8 007:431 JLINK_ReadMemU32(0xE0001028, 0x0001 Items, ...) -- CPU_ReadMem(4 bytes @ 0xE0001028) - Data: 00 00 00 00  returns 0x01 (0002ms, 0874ms total)
T51E8 007:433 JLINK_ReadMemU32(0xE0001038, 0x0001 Items, ...) -- CPU_ReadMem(4 bytes @ 0xE0001038) - Data: 00 02 00 00  returns 0x01 (0002ms, 0876ms total)
T51E8 007:435 JLINK_ReadMemU32(0xE0001048, 0x0001 Items, ...) -- CPU_ReadMem(4 bytes @ 0xE0001048) - Data: 00 00 00 00  returns 0x01 (0001ms, 0877ms total)
T51E8 007:436 JLINK_ReadMemU32(0xE0001058, 0x0001 Items, ...) -- CPU_ReadMem(4 bytes @ 0xE0001058) - Data: 00 00 00 00  returns 0x01 (0001ms, 0878ms total)
T51E8 007:437 JLINK_ReadReg(R0)  returns 0x08000AFC (0000ms, 0878ms total)
T51E8 007:437 JLINK_ReadReg(R1)  returns 0x00000010 (0000ms, 0878ms total)
T51E8 007:437 JLINK_ReadReg(R2)  returns 0x00000001 (0000ms, 0878ms total)
T51E8 007:437 JLINK_ReadReg(R3)  returns 0x00000001 (0000ms, 0878ms total)
T51E8 007:437 JLINK_ReadReg(R4)  returns 0x00000010 (0000ms, 0878ms total)
T51E8 007:437 JLINK_ReadReg(R5)  returns 0x08000AFC (0000ms, 0878ms total)
T51E8 007:437 JLINK_ReadReg(R6)  returns 0x00000000 (0000ms, 0878ms total)
T51E8 007:437 JLINK_ReadReg(R7)  returns 0x00000001 (0000ms, 0878ms total)
T51E8 007:437 JLINK_ReadReg(R8)  returns 0x00000000 (0000ms, 0878ms total)
T51E8 007:437 JLINK_ReadReg(R9)  returns 0x20000160 (0000ms, 0878ms total)
T51E8 007:437 JLINK_ReadReg(R10)  returns 0x08000B20 (0000ms, 0878ms total)
T51E8 007:437 JLINK_ReadReg(R11)  returns 0x00000000 (0000ms, 0878ms total)
T51E8 007:437 JLINK_ReadReg(R12)  returns 0x00000018 (0000ms, 0878ms total)
T51E8 007:437 JLINK_ReadReg(R13 (SP))  returns 0x200006C8 (0000ms, 0878ms total)
T51E8 007:437 JLINK_ReadReg(R14)  returns 0x0800078D (0000ms, 0878ms total)
T51E8 007:437 JLINK_ReadReg(R15 (PC))  returns 0x080003A6 (0000ms, 0878ms total)
T51E8 007:437 JLINK_ReadReg(XPSR)  returns 0x61000000 (0000ms, 0878ms total)
T51E8 007:437 JLINK_ReadReg(MSP)  returns 0x200006C8 (0000ms, 0878ms total)
T51E8 007:437 JLINK_ReadReg(PSP)  returns 0x20001000 (0000ms, 0878ms total)
T51E8 007:437 JLINK_ReadReg(CFBP)  returns 0x00000000 (0000ms, 0878ms total)
T4910 007:437 JLINK_ReadMem (0x20000754, 0x0004 Bytes, ...) -- CPU_ReadMem(64 bytes @ 0x20000740) -- Updating C cache (64 bytes @ 0x20000740) -- Read from C cache (4 bytes @ 0x20000754) - Data: 8D 07 00 08  returns 0x00 (0002ms, 0880ms total)
T4910 007:439 JLINK_ReadMem (0x2000074C, 0x0004 Bytes, ...) -- Read from C cache (4 bytes @ 0x2000074C) - Data: FC 0A 00 08  returns 0x00 (0000ms, 0880ms total)
T4910 007:439 JLINK_ReadMem (0x20000750, 0x0004 Bytes, ...) -- Read from C cache (4 bytes @ 0x20000750) - Data: 10 00 00 00  returns 0x00 (0000ms, 0880ms total)
T4910 007:439 JLINK_ReadMem (0x2000076C, 0x0004 Bytes, ...) -- Read from C cache (4 bytes @ 0x2000076C) - Data: ED 0A 00 08  returns 0x00 (0000ms, 0880ms total)
T4910 007:439 JLINK_ReadMem (0x20000758, 0x0004 Bytes, ...) -- Read from C cache (4 bytes @ 0x20000758) - Data: 00 00 00 00  returns 0x00 (0000ms, 0880ms total)
T4910 007:439 JLINK_ReadMem (0x2000075C, 0x0004 Bytes, ...) -- Read from C cache (4 bytes @ 0x2000075C) - Data: 18 01 00 20  returns 0x00 (0000ms, 0880ms total)
T4910 007:439 JLINK_ReadMem (0x20000760, 0x0004 Bytes, ...) -- Read from C cache (4 bytes @ 0x20000760) - Data: 00 00 00 00  returns 0x00 (0000ms, 0880ms total)
T4910 007:439 JLINK_ReadMem (0x20000764, 0x0004 Bytes, ...) -- Read from C cache (4 bytes @ 0x20000764) - Data: 00 00 00 00  returns 0x00 (0000ms, 0880ms total)
T4910 007:439 JLINK_ReadMem (0x20000768, 0x0004 Bytes, ...) -- Read from C cache (4 bytes @ 0x20000768) - Data: 00 00 00 00  returns 0x00 (0000ms, 0880ms total)
T4910 007:439 JLINK_ReadMem (0x20000774, 0x0004 Bytes, ...) -- Read from C cache (4 bytes @ 0x20000774) - Data: BB 01 00 08  returns 0x00 (0000ms, 0880ms total)
T4910 007:439 JLINK_ReadMem (0x08000AFC, 0x0020 Bytes, ...) -- CPU_ReadMem(128 bytes @ 0x08000AC0) -- Updating C cache (128 bytes @ 0x08000AC0) -- Read from C cache (32 bytes @ 0x08000AFC) - Data: D6 D0 00 00 20 0B 00 08 00 00 00 20 24 00 00 00 ...  returns 0x00 (0004ms, 0884ms total)
T4910 007:443 JLINK_ReadMem (0x200006CC, 0x0020 Bytes, ...) -- CPU_ReadMem(64 bytes @ 0x200006C0) -- Updating C cache (64 bytes @ 0x200006C0) -- Read from C cache (32 bytes @ 0x200006CC) - Data: 00 00 00 00 00 00 00 00 00 00 00 00 00 00 00 00 ...  returns 0x00 (0002ms, 0886ms total)
T4910 007:453 JLINK_ReadMemU32(0xE0001004, 0x0001 Items, ...) -- CPU_ReadMem(4 bytes @ 0xE0001004) - Data: 20 55 00 00  returns 0x01 (0002ms, 0888ms total)
T51E8 008:521 JLINK_ReadMem (0x080003A6, 0x0002 Bytes, ...) -- CPU_ReadMem(64 bytes @ 0x08000380) -- Updating C cache (64 bytes @ 0x08000380) -- Read from C cache (2 bytes @ 0x080003A6) - Data: 22 46  returns 0x00 (0002ms, 0890ms total)
T51E8 008:523 JLINK_ReadMem (0x080003A8, 0x003C Bytes, ...) -- CPU_ReadMem(64 bytes @ 0x080003C0) -- Updating C cache (64 bytes @ 0x080003C0) -- Read from C cache (60 bytes @ 0x080003A8) - Data: 01 A9 28 46 00 F0 02 F8 21 B0 30 BD 2D E9 F0 5F ...  returns 0x00 (0002ms, 0892ms total)
T51E8 008:525 JLINK_Step() -- Read from C cache (2 bytes @ 0x080003A6) -- Simulated  returns 0x00 (0001ms, 0893ms total)
T51E8 008:526 JLINK_ReadReg(R15 (PC))  returns 0x080003A8 (0000ms, 0893ms total)
T51E8 008:526 JLINK_ReadReg(XPSR)  returns 0x61000000 (0000ms, 0893ms total)
T51E8 008:526 JLINK_Step() -- Read from C cache (2 bytes @ 0x080003A8) -- Simulated  returns 0x00 (0000ms, 0893ms total)
T51E8 008:526 JLINK_ReadReg(R15 (PC))  returns 0x080003AA (0000ms, 0893ms total)
T51E8 008:526 JLINK_ReadReg(XPSR)  returns 0x61000000 (0000ms, 0893ms total)
T51E8 008:526 JLINK_Step() -- Read from C cache (2 bytes @ 0x080003AA) -- Simulated  returns 0x00 (0000ms, 0893ms total)
T51E8 008:526 JLINK_ReadReg(R15 (PC))  returns 0x080003AC (0000ms, 0893ms total)
T51E8 008:526 JLINK_ReadReg(XPSR)  returns 0x61000000 (0000ms, 0893ms total)
T51E8 008:526 JLINK_SetBPEx(Addr = 0x080003B0, Type = 0xFFFFFFF2)  returns 0x00000008 (0000ms, 0893ms total)
T51E8 008:526 JLINK_SetBPEx(Addr = 0x080003A6, Type = 0xFFFFFFF2)  returns 0x00000009 (0000ms, 0893ms total)
T51E8 008:526 JLINK_Go() -- CPU_WriteMem(4 bytes @ 0xE0002000) -- CPU_WriteMem(4 bytes @ 0xE0002000) -- CPU_ReadMem(4 bytes @ 0xE0001000) -- CPU_WriteMem(4 bytes @ 0xE0002008) -- CPU_WriteMem(4 bytes @ 0xE000200C) -- CPU_WriteMem(4 bytes @ 0xE0001004) (0012ms, 0905ms total)
T51E8 008:639 JLINK_IsHalted()  returns TRUE (0005ms, 0910ms total)
T51E8 008:644 JLINK_Halt()  returns 0x00 (0000ms, 0905ms total)
T51E8 008:644 JLINK_IsHalted()  returns TRUE (0000ms, 0905ms total)
T51E8 008:644 JLINK_IsHalted()  returns TRUE (0000ms, 0905ms total)
T51E8 008:644 JLINK_IsHalted()  returns TRUE (0000ms, 0905ms total)
T51E8 008:644 JLINK_ReadReg(R15 (PC))  returns 0x080003B0 (0000ms, 0905ms total)
T51E8 008:644 JLINK_ReadReg(XPSR)  returns 0x21000000 (0000ms, 0905ms total)
T51E8 008:644 JLINK_ClrBPEx(BPHandle = 0x00000008)  returns 0x00 (0000ms, 0905ms total)
T51E8 008:644 JLINK_ClrBPEx(BPHandle = 0x00000009)  returns 0x00 (0000ms, 0905ms total)
T51E8 008:644 JLINK_ReadMemU32(0xE000ED30, 0x0001 Items, ...) -- CPU_ReadMem(4 bytes @ 0xE000ED30) - Data: 03 00 00 00  returns 0x01 (0001ms, 0906ms total)
T51E8 008:645 JLINK_ReadMemU32(0xE0001028, 0x0001 Items, ...) -- CPU_ReadMem(4 bytes @ 0xE0001028) - Data: 00 00 00 00  returns 0x01 (0002ms, 0908ms total)
T51E8 008:647 JLINK_ReadMemU32(0xE0001038, 0x0001 Items, ...) -- CPU_ReadMem(4 bytes @ 0xE0001038) - Data: 00 02 00 00  returns 0x01 (0000ms, 0908ms total)
T51E8 008:647 JLINK_ReadMemU32(0xE0001048, 0x0001 Items, ...) -- CPU_ReadMem(4 bytes @ 0xE0001048) - Data: 00 00 00 00  returns 0x01 (0001ms, 0909ms total)
T51E8 008:648 JLINK_ReadMemU32(0xE0001058, 0x0001 Items, ...) -- CPU_ReadMem(4 bytes @ 0xE0001058) - Data: 00 00 00 00  returns 0x01 (0001ms, 0910ms total)
T51E8 008:649 JLINK_ReadReg(R0)  returns 0x00000001 (0000ms, 0910ms total)
T51E8 008:649 JLINK_ReadReg(R1)  returns 0x422181B0 (0000ms, 0910ms total)
T51E8 008:649 JLINK_ReadReg(R2)  returns 0x40003800 (0000ms, 0910ms total)
T51E8 008:649 JLINK_ReadReg(R3)  returns 0x00000001 (0000ms, 0910ms total)
T51E8 008:649 JLINK_ReadReg(R4)  returns 0x00000010 (0000ms, 0910ms total)
T51E8 008:649 JLINK_ReadReg(R5)  returns 0x08000AFC (0000ms, 0910ms total)
T51E8 008:649 JLINK_ReadReg(R6)  returns 0x00000000 (0000ms, 0910ms total)
T51E8 008:649 JLINK_ReadReg(R7)  returns 0x00000001 (0000ms, 0910ms total)
T51E8 008:649 JLINK_ReadReg(R8)  returns 0x00000000 (0000ms, 0910ms total)
T51E8 008:649 JLINK_ReadReg(R9)  returns 0x20000160 (0000ms, 0910ms total)
T51E8 008:649 JLINK_ReadReg(R10)  returns 0x08000B20 (0000ms, 0910ms total)
T51E8 008:649 JLINK_ReadReg(R11)  returns 0x00000000 (0000ms, 0910ms total)
T51E8 008:649 JLINK_ReadReg(R12)  returns 0x00000018 (0000ms, 0910ms total)
T51E8 008:649 JLINK_ReadReg(R13 (SP))  returns 0x200006C8 (0000ms, 0910ms total)
T51E8 008:649 JLINK_ReadReg(R14)  returns 0x080005CF (0000ms, 0910ms total)
T51E8 008:649 JLINK_ReadReg(R15 (PC))  returns 0x080003B0 (0000ms, 0910ms total)
T51E8 008:649 JLINK_ReadReg(XPSR)  returns 0x21000000 (0000ms, 0910ms total)
T51E8 008:649 JLINK_ReadReg(MSP)  returns 0x200006C8 (0000ms, 0910ms total)
T51E8 008:649 JLINK_ReadReg(PSP)  returns 0x20001000 (0000ms, 0910ms total)
T51E8 008:649 JLINK_ReadReg(CFBP)  returns 0x00000000 (0000ms, 0910ms total)
T4910 008:650 JLINK_ReadMem (0x20000754, 0x0004 Bytes, ...) -- CPU_ReadMem(64 bytes @ 0x20000740) -- Updating C cache (64 bytes @ 0x20000740) -- Read from C cache (4 bytes @ 0x20000754) - Data: 8D 07 00 08  returns 0x00 (0002ms, 0912ms total)
T4910 008:652 JLINK_ReadMem (0x2000074C, 0x0004 Bytes, ...) -- Read from C cache (4 bytes @ 0x2000074C) - Data: FC 0A 00 08  returns 0x00 (0000ms, 0912ms total)
T4910 008:652 JLINK_ReadMem (0x20000750, 0x0004 Bytes, ...) -- Read from C cache (4 bytes @ 0x20000750) - Data: 10 00 00 00  returns 0x00 (0000ms, 0912ms total)
T4910 008:652 JLINK_ReadMem (0x2000076C, 0x0004 Bytes, ...) -- Read from C cache (4 bytes @ 0x2000076C) - Data: ED 0A 00 08  returns 0x00 (0000ms, 0912ms total)
T4910 008:652 JLINK_ReadMem (0x20000758, 0x0004 Bytes, ...) -- Read from C cache (4 bytes @ 0x20000758) - Data: 00 00 00 00  returns 0x00 (0000ms, 0912ms total)
T4910 008:652 JLINK_ReadMem (0x2000075C, 0x0004 Bytes, ...) -- Read from C cache (4 bytes @ 0x2000075C) - Data: 18 01 00 20  returns 0x00 (0000ms, 0912ms total)
T4910 008:652 JLINK_ReadMem (0x20000760, 0x0004 Bytes, ...) -- Read from C cache (4 bytes @ 0x20000760) - Data: 00 00 00 00  returns 0x00 (0000ms, 0912ms total)
T4910 008:652 JLINK_ReadMem (0x20000764, 0x0004 Bytes, ...) -- Read from C cache (4 bytes @ 0x20000764) - Data: 00 00 00 00  returns 0x00 (0000ms, 0912ms total)
T4910 008:652 JLINK_ReadMem (0x20000768, 0x0004 Bytes, ...) -- Read from C cache (4 bytes @ 0x20000768) - Data: 00 00 00 00  returns 0x00 (0000ms, 0912ms total)
T4910 008:652 JLINK_ReadMem (0x20000774, 0x0004 Bytes, ...) -- Read from C cache (4 bytes @ 0x20000774) - Data: BB 01 00 08  returns 0x00 (0000ms, 0912ms total)
T4910 008:652 JLINK_ReadMem (0x08000AFC, 0x0020 Bytes, ...) -- CPU_ReadMem(128 bytes @ 0x08000AC0) -- Updating C cache (128 bytes @ 0x08000AC0) -- Read from C cache (32 bytes @ 0x08000AFC) - Data: D6 D0 00 00 20 0B 00 08 00 00 00 20 24 00 00 00 ...  returns 0x00 (0002ms, 0914ms total)
T4910 008:654 JLINK_ReadMem (0x200006CC, 0x0020 Bytes, ...) -- CPU_ReadMem(64 bytes @ 0x200006C0) -- Updating C cache (64 bytes @ 0x200006C0) -- Read from C cache (32 bytes @ 0x200006CC) - Data: 01 00 01 00 01 00 01 00 3F F8 21 08 21 08 21 08 ...  returns 0x00 (0003ms, 0917ms total)
T4910 008:658 JLINK_ReadMemU32(0xE0001004, 0x0001 Items, ...) -- CPU_ReadMem(4 bytes @ 0xE0001004) - Data: 28 72 00 00  returns 0x01 (0001ms, 0918ms total)
T4910 009:208 JLINK_ReadMem (0x200006EC, 0x0001 Bytes, ...) -- Read from C cache (1 bytes @ 0x200006EC) - Data: 00  returns 0x00 (0000ms, 0918ms total)
T4910 009:208 JLINK_ReadMem (0x200006ED, 0x0001 Bytes, ...) -- Read from C cache (1 bytes @ 0x200006ED) - Data: 00  returns 0x00 (0000ms, 0918ms total)
T4910 009:208 JLINK_ReadMem (0x200006EE, 0x0001 Bytes, ...) -- Read from C cache (1 bytes @ 0x200006EE) - Data: 00  returns 0x00 (0000ms, 0918ms total)
T4910 009:208 JLINK_ReadMem (0x200006EF, 0x0001 Bytes, ...) -- Read from C cache (1 bytes @ 0x200006EF) - Data: 00  returns 0x00 (0000ms, 0918ms total)
T4910 009:208 JLINK_ReadMem (0x200006F0, 0x0001 Bytes, ...) -- Read from C cache (1 bytes @ 0x200006F0) - Data: 00  returns 0x00 (0000ms, 0918ms total)
T4910 009:208 JLINK_ReadMem (0x200006F1, 0x0001 Bytes, ...) -- Read from C cache (1 bytes @ 0x200006F1) - Data: 00  returns 0x00 (0000ms, 0918ms total)
T4910 009:208 JLINK_ReadMem (0x200006F2, 0x0001 Bytes, ...) -- Read from C cache (1 bytes @ 0x200006F2) - Data: 00  returns 0x00 (0000ms, 0918ms total)
T4910 009:208 JLINK_ReadMem (0x200006F3, 0x0001 Bytes, ...) -- Read from C cache (1 bytes @ 0x200006F3) - Data: 00  returns 0x00 (0000ms, 0918ms total)
T4910 009:208 JLINK_ReadMem (0x200006F4, 0x0001 Bytes, ...) -- Read from C cache (1 bytes @ 0x200006F4) - Data: 00  returns 0x00 (0000ms, 0918ms total)
T4910 009:208 JLINK_ReadMem (0x200006F5, 0x0001 Bytes, ...) -- Read from C cache (1 bytes @ 0x200006F5) - Data: 00  returns 0x00 (0000ms, 0918ms total)
T4910 009:208 JLINK_ReadMem (0x200006F6, 0x0001 Bytes, ...) -- Read from C cache (1 bytes @ 0x200006F6) - Data: 00  returns 0x00 (0000ms, 0918ms total)
T4910 009:208 JLINK_ReadMem (0x200006F7, 0x0001 Bytes, ...) -- Read from C cache (1 bytes @ 0x200006F7) - Data: 00  returns 0x00 (0000ms, 0918ms total)
T4910 009:208 JLINK_ReadMem (0x200006F8, 0x0001 Bytes, ...) -- Read from C cache (1 bytes @ 0x200006F8) - Data: 00  returns 0x00 (0000ms, 0918ms total)
T4910 009:208 JLINK_ReadMem (0x200006F9, 0x0001 Bytes, ...) -- Read from C cache (1 bytes @ 0x200006F9) - Data: 00  returns 0x00 (0000ms, 0918ms total)
T4910 009:208 JLINK_ReadMem (0x200006FA, 0x0001 Bytes, ...) -- Read from C cache (1 bytes @ 0x200006FA) - Data: 00  returns 0x00 (0000ms, 0918ms total)
T4910 009:208 JLINK_ReadMem (0x200006FB, 0x0001 Bytes, ...) -- Read from C cache (1 bytes @ 0x200006FB) - Data: 00  returns 0x00 (0000ms, 0918ms total)
T4910 009:208 JLINK_ReadMem (0x200006FC, 0x0001 Bytes, ...) -- Read from C cache (1 bytes @ 0x200006FC) - Data: 00  returns 0x00 (0000ms, 0918ms total)
T4910 009:208 JLINK_ReadMem (0x200006FD, 0x0001 Bytes, ...) -- Read from C cache (1 bytes @ 0x200006FD) - Data: 00  returns 0x00 (0001ms, 0919ms total)
T4910 009:209 JLINK_ReadMem (0x200006FE, 0x0001 Bytes, ...) -- Read from C cache (1 bytes @ 0x200006FE) - Data: 00  returns 0x00 (0000ms, 0919ms total)
T4910 009:209 JLINK_ReadMem (0x200006FF, 0x0001 Bytes, ...) -- Read from C cache (1 bytes @ 0x200006FF) - Data: 00  returns 0x00 (0000ms, 0919ms total)
T4910 009:209 JLINK_ReadMem (0x20000700, 0x0001 Bytes, ...) -- CPU_ReadMem(64 bytes @ 0x20000700) -- Updating C cache (64 bytes @ 0x20000700) -- Read from C cache (1 bytes @ 0x20000700) - Data: 00  returns 0x00 (0003ms, 0922ms total)
T4910 009:212 JLINK_ReadMem (0x20000701, 0x0001 Bytes, ...) -- Read from C cache (1 bytes @ 0x20000701) - Data: 00  returns 0x00 (0000ms, 0922ms total)
T4910 009:212 JLINK_ReadMem (0x20000702, 0x0001 Bytes, ...) -- Read from C cache (1 bytes @ 0x20000702) - Data: 00  returns 0x00 (0000ms, 0922ms total)
T4910 009:212 JLINK_ReadMem (0x20000703, 0x0001 Bytes, ...) -- Read from C cache (1 bytes @ 0x20000703) - Data: 00  returns 0x00 (0000ms, 0922ms total)
T4910 009:212 JLINK_ReadMem (0x20000704, 0x0001 Bytes, ...) -- Read from C cache (1 bytes @ 0x20000704) - Data: 00  returns 0x00 (0000ms, 0922ms total)
T4910 009:212 JLINK_ReadMem (0x20000705, 0x0001 Bytes, ...) -- Read from C cache (1 bytes @ 0x20000705) - Data: 00  returns 0x00 (0000ms, 0922ms total)
T4910 009:212 JLINK_ReadMem (0x20000706, 0x0001 Bytes, ...) -- Read from C cache (1 bytes @ 0x20000706) - Data: 00  returns 0x00 (0000ms, 0922ms total)
T4910 009:212 JLINK_ReadMem (0x20000707, 0x0001 Bytes, ...) -- Read from C cache (1 bytes @ 0x20000707) - Data: 00  returns 0x00 (0000ms, 0922ms total)
T4910 009:212 JLINK_ReadMem (0x20000708, 0x0001 Bytes, ...) -- Read from C cache (1 bytes @ 0x20000708) - Data: 00  returns 0x00 (0000ms, 0922ms total)
T4910 009:212 JLINK_ReadMem (0x20000709, 0x0001 Bytes, ...) -- Read from C cache (1 bytes @ 0x20000709) - Data: 00  returns 0x00 (0000ms, 0922ms total)
T4910 009:212 JLINK_ReadMem (0x2000070A, 0x0001 Bytes, ...) -- Read from C cache (1 bytes @ 0x2000070A) - Data: 00  returns 0x00 (0000ms, 0922ms total)
T4910 009:212 JLINK_ReadMem (0x2000070B, 0x0001 Bytes, ...) -- Read from C cache (1 bytes @ 0x2000070B) - Data: 00  returns 0x00 (0000ms, 0922ms total)
